
**** 02/01/18 12:27:05 ******* PSpice Lite (March 2016) ******* ID# 10813 ****

 ** Profile: "SCHEMATIC1-lab_4"  [ Z:\lab4-pspicefiles\schematic1\lab_4.sim ] 


 ****     CIRCUIT DESCRIPTION


******************************************************************************




** Creating circuit file "lab_4.cir" 
** WARNING: THIS AUTOMATICALLY GENERATED FILE MAY BE OVERWRITTEN BY SUBSEQUENT SIMULATIONS

*Libraries: 
* Profile Libraries :
* Local Libraries :
* From [PSPICE NETLIST] section of Z:\cdssetup\OrCAD_PSpice\17.2.0\PSpice.ini file:
.lib "nomd.lib" 

*Analysis directives: 
.OPTIONS ADVCONV
.PROBE64 V(alias(*)) I(alias(*)) W(alias(*)) D(alias(*)) NOISE(alias(*)) 
.INC "..\SCHEMATIC1.net" 



**** INCLUDING SCHEMATIC1.net ****
* source LAB4
R_R1         N00242 0  15 TC=0,0 
R_R2         N00226 0  40 TC=0,0 
R_R3         N00287 0  30 TC=0,0 
R_R4         N00242 N00226  4 TC=0,0 
R_R5         N00226 0  20 TC=0,0 
R_R6         N00287 N00242  4 TC=0,0 
V_V1         N00287 0 12Vdc

**** RESUMING lab_4.cir ****
.END

**** 02/01/18 12:27:05 ******* PSpice Lite (March 2016) ******* ID# 10813 ****

 ** Profile: "SCHEMATIC1-lab_4"  [ Z:\lab4-pspicefiles\schematic1\lab_4.sim ] 


 ****     SMALL SIGNAL BIAS SOLUTION       TEMPERATURE =   27.000 DEG C


******************************************************************************



 NODE   VOLTAGE     NODE   VOLTAGE     NODE   VOLTAGE     NODE   VOLTAGE


(N00226)    6.1644 (N00242)    8.0137 (N00287)   12.0000 




    VOLTAGE SOURCE CURRENTS
    NAME         CURRENT

    V_V1        -1.397E+00

    TOTAL POWER DISSIPATION   1.68E+01  WATTS



          JOB CONCLUDED

**** 02/01/18 12:27:05 ******* PSpice Lite (March 2016) ******* ID# 10813 ****

 ** Profile: "SCHEMATIC1-lab_4"  [ Z:\lab4-pspicefiles\schematic1\lab_4.sim ] 


 ****     JOB STATISTICS SUMMARY


******************************************************************************



  Total job time (using Solver 1)   =         .03
